T7B70 000:005.564   SEGGER J-Link V8.12g Log File
T7B70 000:005.868   DLL Compiled: Feb 19 2025 16:37:21
T7B70 000:005.881   Logging started @ 2025-03-16 10:14
T7B70 000:005.893   Process: E:\1.software\57.puya_keil\UV4\UV4.exe
T7B70 000:005.914 - 5.905ms 
T7B70 000:005.931 JLINK_SetWarnOutHandler(...)
T7B70 000:005.943 - 0.013ms 
T7B70 000:005.963 JLINK_OpenEx(...)
T7B70 000:019.240   Firmware: J-Link V9 compiled May  7 2021 16:26:12
T7B70 000:021.351   Firmware: J-Link V9 compiled May  7 2021 16:26:12
T7B70 000:021.504   Decompressing FW timestamp took 111 us
T7B70 000:030.302   Hardware: V9.50
T7B70 000:030.344   S/N: 69512194
T7B70 000:030.361   OEM: SEGGER
T7B70 000:030.379   Feature(s): JFlash, GDB, RDI, FlashBP, FlashDL
T7B70 000:032.275   Bootloader: (FW returned invalid version)
T7B70 000:043.109   TELNET listener socket opened on port 19021
T7B70 000:043.338   WEBSRV WEBSRV_Init(): Starting webserver thread(s)
T7B70 000:043.418   WEBSRV Failed to put socket into listener state (port 19080)
T7B70 000:043.507   WEBSRV Webserver running on local port 19081
T7B70 000:043.624   Looking for J-Link GUI Server exe at: E:\1.software\57.puya_keil\ARM\Segger\JLinkGUIServer.exe
T7B70 000:043.765   Looking for J-Link GUI Server exe at: C:\Program Files\SEGGER\JLink\JLinkGUIServer.exe
T7B70 000:043.806   Forking J-Link GUI Server: C:\Program Files\SEGGER\JLink\JLinkGUIServer.exe
T7B70 000:070.707   J-Link GUI Server info: "J-Link GUI server V8.12g "
T7B70 000:071.250 - 65.280ms returns "O.K."
T7B70 000:071.386 JLINK_GetEmuCaps()
T7B70 000:071.409 - 0.019ms returns 0xB9FF7BBF
T7B70 000:071.425 JLINK_TIF_GetAvailable(...)
T7B70 000:073.663 - 2.237ms 
T7B70 000:073.765 JLINK_SetErrorOutHandler(...)
T7B70 000:073.781 - 0.015ms 
T7B70 000:073.821 JLINK_ExecCommand("ProjectFile = "D:\Users\148005\Desktop\新建文件夹 (2)\PY32F002B_Remote\MDK-ARM\JLinkSettings.ini"", ...). 
T7B70 000:089.435   XML file found at: C:\Users\148005\AppData\Roaming\SEGGER\JLinkDevices\Puya\PY32\Devices.xml
T7B70 000:090.595   C:\Users\148005\AppData\Roaming\SEGGER\JLinkDevices\Puya\PY32\Devices.xml evaluated successfully.
T7B70 000:090.627     Device entry created:  PY32F002AX5
T7B70 000:090.648       ChipInfo:
T7B70 000:090.665         Vendor:          Puya
T7B70 000:090.715         Name:            PY32F002AX5
T7B70 000:090.734         WorkRAMAddr:     0x20000000
T7B70 000:090.753         WorkRAMSize:     0x00000C00
T7B70 000:090.772         Core:            JLINK_CORE_CORTEX_M0
T7B70 000:090.791       FlashBankInfo:
T7B70 000:090.810         Name:            Flash_20K
T7B70 000:090.829         BaseAddr:        0x08000000
T7B70 000:090.956         AlwaysPresent:   1
T7B70 000:090.978         LoaderInfo:
T7B70 000:090.996           Name:            Flash_20K
T7B70 000:091.014           MaxSize:         0x00005000
T7B70 000:091.034           Loader:          C:\Users\148005\AppData\Roaming\SEGGER\JLinkDevices\Puya\PY32\PY32F0xx_20.FLM
T7B70 000:091.052           LoaderType:      FLASH_ALGO_TYPE_OPEN
T7B70 000:091.136     Device entry created:  PY32F002AX6
T7B70 000:091.149       ChipInfo:
T7B70 000:091.166         Vendor:          Puya
T7B70 000:091.185         Name:            PY32F002AX6
T7B70 000:091.202         WorkRAMAddr:     0x20000000
T7B70 000:091.220         WorkRAMSize:     0x00001000
T7B70 000:091.239         Core:            JLINK_CORE_CORTEX_M0
T7B70 000:091.257       FlashBankInfo:
T7B70 000:091.275         Name:            Flash_32K
T7B70 000:091.292         BaseAddr:        0x08000000
T7B70 000:091.381         AlwaysPresent:   1
T7B70 000:091.400         LoaderInfo:
T7B70 000:091.417           Name:            Flash_32K
T7B70 000:091.435           MaxSize:         0x00008000
T7B70 000:091.453           Loader:          C:\Users\148005\AppData\Roaming\SEGGER\JLinkDevices\Puya\PY32\PY32F003xx_32.FLM
T7B70 000:091.471           LoaderType:      FLASH_ALGO_TYPE_OPEN
T7B70 000:091.493     Device entry created:  PY32F002BX5
T7B70 000:091.505       ChipInfo:
T7B70 000:091.522         Vendor:          Puya
T7B70 000:091.584         Name:            PY32F002BX5
T7B70 000:091.602         WorkRAMAddr:     0x20000000
T7B70 000:091.620         WorkRAMSize:     0x00000C00
T7B70 000:091.638         Core:            JLINK_CORE_CORTEX_M0
T7B70 000:091.656       FlashBankInfo:
T7B70 000:091.673         Name:            Flash_24K
T7B70 000:091.691         BaseAddr:        0x08000000
T7B70 000:091.778         AlwaysPresent:   1
T7B70 000:091.796         LoaderInfo:
T7B70 000:091.814           Name:            Flash_24K
T7B70 000:091.831           MaxSize:         0x00006000
T7B70 000:091.849           Loader:          C:\Users\148005\AppData\Roaming\SEGGER\JLinkDevices\Puya\PY32\PY32F002Bxx_24.FLM
T7B70 000:091.867           LoaderType:      FLASH_ALGO_TYPE_OPEN
T7B70 000:091.888     Device entry created:  PY32F003X4
T7B70 000:091.900       ChipInfo:
T7B70 000:091.917         Vendor:          Puya
T7B70 000:091.935         Name:            PY32F003X4
T7B70 000:091.953         WorkRAMAddr:     0x20000000
T7B70 000:091.970         WorkRAMSize:     0x00000800
T7B70 000:091.988         Core:            JLINK_CORE_CORTEX_M0
T7B70 000:092.006       FlashBankInfo:
T7B70 000:092.023         Name:            Flash_16K
T7B70 000:092.040         BaseAddr:        0x08000000
T7B70 000:092.119         AlwaysPresent:   1
T7B70 000:092.138         LoaderInfo:
T7B70 000:092.155           Name:            Flash_16K
T7B70 000:092.173           MaxSize:         0x00004000
T7B70 000:092.192           Loader:          C:\Users\148005\AppData\Roaming\SEGGER\JLinkDevices\Puya\PY32\PY32F003xx_16.FLM
T7B70 000:092.209           LoaderType:      FLASH_ALGO_TYPE_OPEN
T7B70 000:092.230     Device entry created:  PY32F003X6
T7B70 000:092.241       ChipInfo:
T7B70 000:092.259         Vendor:          Puya
T7B70 000:092.276         Name:            PY32F003X6
T7B70 000:092.293         WorkRAMAddr:     0x20000000
T7B70 000:092.310         WorkRAMSize:     0x00001000
T7B70 000:092.328         Core:            JLINK_CORE_CORTEX_M0
T7B70 000:092.346       FlashBankInfo:
T7B70 000:092.363         Name:            Flash_32K
T7B70 000:092.380         BaseAddr:        0x08000000
T7B70 000:092.450         AlwaysPresent:   1
T7B70 000:092.469         LoaderInfo:
T7B70 000:092.486           Name:            Flash_32K
T7B70 000:092.504           MaxSize:         0x00008000
T7B70 000:092.519           Loader:          C:\Users\148005\AppData\Roaming\SEGGER\JLinkDevices\Puya\PY32\PY32F003xx_32.FLM
T7B70 000:092.536           LoaderType:      FLASH_ALGO_TYPE_OPEN
T7B70 000:092.555     Device entry created:  PY32F003X8
T7B70 000:092.565       ChipInfo:
T7B70 000:092.582         Vendor:          Puya
T7B70 000:092.597         Name:            PY32F003X8
T7B70 000:092.613         WorkRAMAddr:     0x20000000
T7B70 000:092.629         WorkRAMSize:     0x00002000
T7B70 000:092.645         Core:            JLINK_CORE_CORTEX_M0
T7B70 000:092.661       FlashBankInfo:
T7B70 000:092.676         Name:            Flash_64K
T7B70 000:092.692         BaseAddr:        0x08000000
T7B70 000:092.767         AlwaysPresent:   1
T7B70 000:092.784         LoaderInfo:
T7B70 000:092.799           Name:            Flash_64K
T7B70 000:092.815           MaxSize:         0x00010000
T7B70 000:092.831           Loader:          C:\Users\148005\AppData\Roaming\SEGGER\JLinkDevices\Puya\PY32\PY32F003xx_64.FLM
T7B70 000:092.846           LoaderType:      FLASH_ALGO_TYPE_OPEN
T7B70 000:092.864     Device entry created:  PY32F030X4
T7B70 000:092.875       ChipInfo:
T7B70 000:092.890         Vendor:          Puya
T7B70 000:092.905         Name:            PY32F030X4
T7B70 000:092.921         WorkRAMAddr:     0x20000000
T7B70 000:092.937         WorkRAMSize:     0x00000800
T7B70 000:092.952         Core:            JLINK_CORE_CORTEX_M0
T7B70 000:092.969       FlashBankInfo:
T7B70 000:092.984         Name:            Flash_16K
T7B70 000:093.000         BaseAddr:        0x08000000
T7B70 000:093.060         AlwaysPresent:   1
T7B70 000:093.076         LoaderInfo:
T7B70 000:093.116           Name:            Flash_16K
T7B70 000:093.131           MaxSize:         0x00004000
T7B70 000:093.147           Loader:          C:\Users\148005\AppData\Roaming\SEGGER\JLinkDevices\Puya\PY32\PY32F030xx_16.FLM
T7B70 000:093.163           LoaderType:      FLASH_ALGO_TYPE_OPEN
T7B70 000:093.181     Device entry created:  PY32F030X6
T7B70 000:093.192       ChipInfo:
T7B70 000:093.208         Vendor:          Puya
T7B70 000:093.224         Name:            PY32F030X6
T7B70 000:093.239         WorkRAMAddr:     0x20000000
T7B70 000:093.255         WorkRAMSize:     0x00001000
T7B70 000:093.270         Core:            JLINK_CORE_CORTEX_M0
T7B70 000:093.286       FlashBankInfo:
T7B70 000:093.301         Name:            Flash_32K
T7B70 000:093.317         BaseAddr:        0x08000000
T7B70 000:093.380         AlwaysPresent:   1
T7B70 000:093.396         LoaderInfo:
T7B70 000:093.411           Name:            Flash_32K
T7B70 000:093.427           MaxSize:         0x00008000
T7B70 000:093.443           Loader:          C:\Users\148005\AppData\Roaming\SEGGER\JLinkDevices\Puya\PY32\PY32F030xx_32.FLM
T7B70 000:093.459           LoaderType:      FLASH_ALGO_TYPE_OPEN
T7B70 000:093.476     Device entry created:  PY32F030X7
T7B70 000:093.487       ChipInfo:
T7B70 000:093.503         Vendor:          Puya
T7B70 000:093.519         Name:            PY32F030X7
T7B70 000:093.534         WorkRAMAddr:     0x20000000
T7B70 000:093.550         WorkRAMSize:     0x00001800
T7B70 000:093.566         Core:            JLINK_CORE_CORTEX_M0
T7B70 000:093.581       FlashBankInfo:
T7B70 000:093.597         Name:            Flash_48K
T7B70 000:093.614         BaseAddr:        0x08000000
T7B70 000:093.682         AlwaysPresent:   1
T7B70 000:093.698         LoaderInfo:
T7B70 000:093.714           Name:            Flash_48K
T7B70 000:093.730           MaxSize:         0x0000C000
T7B70 000:093.745           Loader:          C:\Users\148005\AppData\Roaming\SEGGER\JLinkDevices\Puya\PY32\PY32F030xx_48.FLM
T7B70 000:093.761           LoaderType:      FLASH_ALGO_TYPE_OPEN
T7B70 000:093.778     Device entry created:  PY32F030X8
T7B70 000:093.789       ChipInfo:
T7B70 000:093.806         Vendor:          Puya
T7B70 000:093.824         Name:            PY32F030X8
T7B70 000:093.841         WorkRAMAddr:     0x20000000
T7B70 000:093.859         WorkRAMSize:     0x00002000
T7B70 000:093.877         Core:            JLINK_CORE_CORTEX_M0
T7B70 000:093.894       FlashBankInfo:
T7B70 000:093.912         Name:            Flash_64K
T7B70 000:093.930         BaseAddr:        0x08000000
T7B70 000:094.004         AlwaysPresent:   1
T7B70 000:094.023         LoaderInfo:
T7B70 000:094.041           Name:            Flash_64K
T7B70 000:094.061           MaxSize:         0x00010000
T7B70 000:094.080           Loader:          C:\Users\148005\AppData\Roaming\SEGGER\JLinkDevices\Puya\PY32\PY32F030xx_64.FLM
T7B70 000:094.097           LoaderType:      FLASH_ALGO_TYPE_OPEN
T7B70 000:094.117     Device entry created:  PY32F072XB
T7B70 000:094.128       ChipInfo:
T7B70 000:094.146         Vendor:          Puya
T7B70 000:094.163         Name:            PY32F072XB
T7B70 000:094.180         WorkRAMAddr:     0x20000000
T7B70 000:094.198         WorkRAMSize:     0x00004000
T7B70 000:094.216         Core:            JLINK_CORE_CORTEX_M0
T7B70 000:094.233       FlashBankInfo:
T7B70 000:094.251         Name:            Flash_128K
T7B70 000:094.268         BaseAddr:        0x08000000
T7B70 000:094.338         AlwaysPresent:   1
T7B70 000:094.356         LoaderInfo:
T7B70 000:094.374           Name:            Flash_128K
T7B70 000:094.391           MaxSize:         0x00020000
T7B70 000:094.409           Loader:          C:\Users\148005\AppData\Roaming\SEGGER\JLinkDevices\Puya\PY32\PY32F072xx_128.FLM
T7B70 000:094.427           LoaderType:      FLASH_ALGO_TYPE_OPEN
T7B70 000:094.446     Device entry created:  PY32F403XXB
T7B70 000:094.458       ChipInfo:
T7B70 000:094.475         Vendor:          Puya
T7B70 000:094.494         Name:            PY32F403XXB
T7B70 000:094.512         WorkRAMAddr:     0x20000000
T7B70 000:094.529         WorkRAMSize:     0x00010000
T7B70 000:094.548         Core:            JLINK_CORE_CORTEX_M4
T7B70 000:094.565       FlashBankInfo:
T7B70 000:094.583         Name:            Flash_128K
T7B70 000:094.601         BaseAddr:        0x08000000
T7B70 000:094.674         AlwaysPresent:   1
T7B70 000:094.692         LoaderInfo:
T7B70 000:094.710           Name:            Flash_128K
T7B70 000:094.727           MaxSize:         0x00020000
T7B70 000:094.745           Loader:          C:\Users\148005\AppData\Roaming\SEGGER\JLinkDevices\Puya\PY32\PY32F403xx_128.FLM
T7B70 000:094.762           LoaderType:      FLASH_ALGO_TYPE_OPEN
T7B70 000:094.783     Device entry created:  PY32F403XXC
T7B70 000:094.794       ChipInfo:
T7B70 000:094.812         Vendor:          Puya
T7B70 000:094.830         Name:            PY32F403XXC
T7B70 000:094.847         WorkRAMAddr:     0x20000000
T7B70 000:094.866         WorkRAMSize:     0x00010000
T7B70 000:094.884         Core:            JLINK_CORE_CORTEX_M4
T7B70 000:094.903       FlashBankInfo:
T7B70 000:094.921         Name:            Flash_256K
T7B70 000:094.938         BaseAddr:        0x08000000
T7B70 000:095.013         AlwaysPresent:   1
T7B70 000:095.032         LoaderInfo:
T7B70 000:095.050           Name:            Flash_256K
T7B70 000:095.068           MaxSize:         0x00040000
T7B70 000:095.086           Loader:          C:\Users\148005\AppData\Roaming\SEGGER\JLinkDevices\Puya\PY32\PY32F403xx_256.FLM
T7B70 000:095.103           LoaderType:      FLASH_ALGO_TYPE_OPEN
T7B70 000:095.122     Device entry created:  PY32F403XXD
T7B70 000:095.134       ChipInfo:
T7B70 000:095.152         Vendor:          Puya
T7B70 000:095.205         Name:            PY32F403XXD
T7B70 000:095.223         WorkRAMAddr:     0x20000000
T7B70 000:095.241         WorkRAMSize:     0x00010000
T7B70 000:095.259         Core:            JLINK_CORE_CORTEX_M4
T7B70 000:095.276       FlashBankInfo:
T7B70 000:095.294         Name:            Flash_384K
T7B70 000:095.311         BaseAddr:        0x08000000
T7B70 000:095.387         AlwaysPresent:   1
T7B70 000:095.406         LoaderInfo:
T7B70 000:095.423           Name:            Flash_384K
T7B70 000:095.440           MaxSize:         0x00060000
T7B70 000:095.458           Loader:          C:\Users\148005\AppData\Roaming\SEGGER\JLinkDevices\Puya\PY32\PY32F403xx_384.FLM
T7B70 000:095.476           LoaderType:      FLASH_ALGO_TYPE_OPEN
T7B70 000:097.519   Ref file found at: E:\1.software\57.puya_keil\ARM\Segger\JLinkDevices.ref
T7B70 000:097.715   REF file references invalid XML file: C:\Program Files\SEGGER\JLink\JLinkDevices.xml
T7B70 000:099.272 - 25.453ms returns 0x00
T7B70 000:103.872 JLINK_ExecCommand("Device = PY32F002Bx5", ...). 
T7B70 000:105.518   Flash bank @ 0x08000000: SFL: Parsing sectorization info from ELF file
T7B70 000:105.547     FlashDevice.SectorInfo[0]: .SectorSize = 0x00001000, .SectorStartAddr = 0x00000000
T7B70 000:105.566   OFL: Init() present @ offset 0x00000003
T7B70 000:105.584   OFL: UnInit() present @ offset 0x00000033
T7B70 000:105.601   OFL: EraseSector() present @ offset 0x00000095
T7B70 000:105.619   OFL: ProgramPage() present @ offset 0x000000DB
T7B70 000:105.636   OFL: EraseChip() present @ offset 0x00000041
T7B70 000:105.654   OFL: BlankCheck() present @ offset 0x000000D7
T7B70 000:105.672   OFL: Verify() N/A
T7B70 000:105.689   OFL: SEGGER_FL_Erase() N/A
T7B70 000:105.706   OFL: SEGGER_OPEN_Erase() N/A
T7B70 000:105.725   OFL: SEGGER_FL_Program() N/A
T7B70 000:105.742   OFL: SEGGER_OPEN_Program() N/A
T7B70 000:105.759   OFL: SEGGER_FL_Read() N/A
T7B70 000:105.776   OFL: SEGGER_OPEN_Read() N/A
T7B70 000:105.794   OFL: SEGGER_FL_CalcCRC() N/A
T7B70 000:105.811   OFL: SEGGER_OPEN_CalcCRC() N/A
T7B70 000:105.828   OFL: SEGGER_FL_Start() N/A
T7B70 000:105.845   OFL: SEGGER_OPEN_Start() N/A
T7B70 000:105.862   OFL: SEGGER_FL_GetFlashInfo() N/A
T7B70 000:106.010   OFL: SEGGER_OPEN_GetFlashInfo() N/A
T7B70 000:106.028   OFL: SEGGER_FL_Verify() N/A
T7B70 000:106.045   OFL: SEGGER_FL_CheckBlank() N/A
T7B70 000:106.062   OFL: SEGGER_FL_Prepare() N/A
T7B70 000:106.081   OFL: SEGGER_FL_Restore() N/A
T7B70 000:106.098   OFL: SEGGER_FL_EraseChip() N/A
T7B70 000:106.115   OFL var <SEGGER_FL_GoIntEn>: N/A
T7B70 000:106.133   OFL var <SEGGER_FL_Flags>: N/A
T7B70 000:108.764   Device "PY32F002BX5" selected.
T7B70 000:109.547 - 5.632ms returns 0x00
T7B70 000:109.577 JLINK_ExecCommand("DisableConnectionTimeout", ...). 
T7B70 000:109.598   ERROR: Unknown command
T7B70 000:109.614 - 0.024ms returns 0x01
T7B70 000:109.626 JLINK_GetHardwareVersion()
T7B70 000:109.637 - 0.010ms returns 95000
T7B70 000:109.649 JLINK_GetDLLVersion()
T7B70 000:109.659 - 0.010ms returns 81207
T7B70 000:109.672 JLINK_GetOEMString(...)
T7B70 000:109.684 JLINK_GetFirmwareString(...)
T7B70 000:109.695 - 0.011ms 
T7B70 000:116.755 JLINK_GetDLLVersion()
T7B70 000:116.810 - 0.055ms returns 81207
T7B70 000:116.822 JLINK_GetCompileDateTime()
T7B70 000:116.833 - 0.010ms 
T7B70 000:119.067 JLINK_GetFirmwareString(...)
T7B70 000:119.108 - 0.040ms 
T7B70 000:121.451 JLINK_GetHardwareVersion()
T7B70 000:121.494 - 0.042ms returns 95000
T7B70 000:124.289 JLINK_GetSN()
T7B70 000:124.338 - 0.048ms returns 69512194
T7B70 000:129.562 JLINK_GetOEMString(...)
T7B70 000:135.008 JLINK_TIF_Select(JLINKARM_TIF_SWD)
T7B70 000:139.599 - 4.590ms returns 0x00
T7B70 000:139.683 JLINK_HasError()
T7B70 000:139.703 JLINK_SetSpeed(20000)
T7B70 000:142.005 - 2.300ms 
T7B70 000:142.124 JLINK_GetId()
T7B70 000:157.912   Found SW-DP with ID 0x0BC11477
T7B70 000:163.731   DPIDR: 0x0BC11477
T7B70 000:166.126   CoreSight SoC-400 or earlier
T7B70 000:168.307   Scanning AP map to find all available APs
T7B70 000:171.519   AP[1]: Stopped AP scan as end of AP map has been reached
T7B70 000:175.065   AP[0]: AHB-AP (IDR: 0x04770031, ADDR: 0x00000000)
T7B70 000:177.730   Iterating through AP map to find AHB-AP to use
T7B70 000:180.986   AP[0]: Core found
T7B70 000:183.076   AP[0]: AHB-AP ROM base: 0xE00FF000
T7B70 000:185.491   CPUID register: 0x410CC601. Implementer code: 0x41 (ARM)
T7B70 000:187.576   Found Cortex-M0 r0p1, Little endian.
T7B70 000:188.342   -- Max. mem block: 0x0000D218
T7B70 000:189.184   CPU_ReadMem(4 bytes @ 0xE000EDF0)
T7B70 000:189.574   CPU_ReadMem(4 bytes @ 0xE0002000)
T7B70 000:192.265   FPUnit: 4 code (BP) slots and 0 literal slots
T7B70 000:192.303   CPU_ReadMem(4 bytes @ 0xE000EDFC)
T7B70 000:192.721   CPU_ReadMem(4 bytes @ 0xE0001000)
T7B70 000:193.173   CPU_WriteMem(4 bytes @ 0xE0001000)
T7B70 000:195.483   CoreSight components:
T7B70 000:197.402   ROMTbl[0] @ E00FF000
T7B70 000:197.437   CPU_ReadMem(64 bytes @ 0xE00FF000)
T7B70 000:198.184   CPU_ReadMem(32 bytes @ 0xE000EFE0)
T7B70 000:200.510   [0][0]: E000E000 CID B105E00D PID 000BB008 SCS
T7B70 000:200.546   CPU_ReadMem(32 bytes @ 0xE0001FE0)
T7B70 000:202.911   [0][1]: E0001000 CID B105E00D PID 000BB00A DWT
T7B70 000:202.949   CPU_ReadMem(32 bytes @ 0xE0002FE0)
T7B70 000:206.884   [0][2]: E0002000 CID B105E00D PID 000BB00B FPB
T7B70 000:207.575 - 65.450ms returns 0x0BC11477
T7B70 000:207.686 JLINK_GetDLLVersion()
T7B70 000:207.701 - 0.015ms returns 81207
T7B70 000:207.715 JLINK_CORE_GetFound()
T7B70 000:207.728 - 0.012ms returns 0x60000FF
T7B70 000:207.741 JLINK_GetDebugInfo(0x100 = JLINKARM_ROM_TABLE_ADDR_INDEX)
T7B70 000:207.754   Value=0xE00FF000
T7B70 000:207.769 - 0.028ms returns 0
T7B70 000:210.331 JLINK_GetDebugInfo(0x100 = JLINKARM_ROM_TABLE_ADDR_INDEX)
T7B70 000:210.364   Value=0xE00FF000
T7B70 000:210.382 - 0.050ms returns 0
T7B70 000:210.394 JLINK_GetDebugInfo(0x101 = JLINKARM_DEBUG_INFO_ETM_ADDR_INDEX)
T7B70 000:210.404   Value=0x00000000
T7B70 000:210.419 - 0.025ms returns 0
T7B70 000:210.431 JLINK_ReadMemEx(0xE0041FF0, 0x10 Bytes, Flags = 0x02000004)
T7B70 000:210.467   CPU_ReadMem(16 bytes @ 0xE0041FF0)
T7B70 000:211.723   Data:  00 00 00 00 00 00 00 00 00 00 00 00 00 00 00 00
T7B70 000:211.761 - 1.330ms returns 16 (0x10)
T7B70 000:211.838 JLINK_GetDebugInfo(0x102 = JLINKARM_DEBUG_INFO_MTB_ADDR_INDEX)
T7B70 000:211.853   Value=0x00000000
T7B70 000:211.869 - 0.030ms returns 0
T7B70 000:211.880 JLINK_GetDebugInfo(0x103 = JLINKARM_DEBUG_INFO_TPIU_ADDR_INDEX)
T7B70 000:211.890   Value=0x00000000
T7B70 000:211.905 - 0.025ms returns 0
T7B70 000:211.917 JLINK_ReadMemEx(0xE0040FF0, 0x10 Bytes, Flags = 0x02000004)
T7B70 000:211.931   CPU_ReadMem(16 bytes @ 0xE0040FF0)
T7B70 000:212.931   Data:  00 00 00 00 00 00 00 00 00 00 00 00 00 00 00 00
T7B70 000:212.953 - 1.037ms returns 16 (0x10)
T7B70 000:213.000 JLINK_GetDebugInfo(0x104 = JLINKARM_DEBUG_INFO_ITM_ADDR_INDEX)
T7B70 000:213.013   Value=0xE0000000
T7B70 000:213.029 - 0.029ms returns 0
T7B70 000:213.040 JLINK_GetDebugInfo(0x105 = JLINKARM_DEBUG_INFO_DWT_ADDR_INDEX)
T7B70 000:213.050   Value=0xE0001000
T7B70 000:213.066 - 0.026ms returns 0
T7B70 000:213.079 JLINK_GetDebugInfo(0x106 = JLINKARM_DEBUG_INFO_FPB_ADDR_INDEX)
T7B70 000:213.089   Value=0xE0002000
T7B70 000:213.104 - 0.025ms returns 0
T7B70 000:213.115 JLINK_GetDebugInfo(0x107 = JLINKARM_DEBUG_INFO_NVIC_ADDR_INDEX)
T7B70 000:213.125   Value=0xE000E000
T7B70 000:213.141 - 0.025ms returns 0
T7B70 000:213.152 JLINK_GetDebugInfo(0x10C = JLINKARM_DEBUG_INFO_DBG_ADDR_INDEX)
T7B70 000:213.162   Value=0xE000EDF0
T7B70 000:213.177 - 0.025ms returns 0
T7B70 000:213.188 JLINK_GetDebugInfo(0x01 = Unknown)
T7B70 000:213.198   Value=0x00000000
T7B70 000:213.213 - 0.025ms returns 0
T7B70 000:213.225 JLINK_ReadMemU32(0xE000ED00, 0x1 Items)
T7B70 000:213.238   CPU_ReadMem(4 bytes @ 0xE000ED00)
T7B70 000:214.113   Data:  01 C6 0C 41
T7B70 000:214.145   Debug reg: CPUID
T7B70 000:214.162 - 0.937ms returns 1 (0x1)
T7B70 000:214.211 JLINK_GetDebugInfo(0x10F = JLINKARM_DEBUG_INFO_HAS_CORTEX_M_SECURITY_EXT_INDEX)
T7B70 000:214.224   Value=0x00000000
T7B70 000:214.239 - 0.028ms returns 0
T7B70 000:214.256 JLINK_HasError()
T7B70 000:214.267 JLINK_SetResetType(JLINKARM_CM3_RESET_TYPE_NORMAL)
T7B70 000:214.278 - 0.011ms returns JLINKARM_CM3_RESET_TYPE_NORMAL
T7B70 000:214.290 JLINK_Reset()
T7B70 000:215.695   JLINK_GetResetTypeDesc
T7B70 000:215.717   - 0.022ms 
T7B70 000:218.026   Reset type: NORMAL (https://wiki.segger.com/J-Link_Reset_Strategies)
T7B70 000:218.080   CPU is running
T7B70 000:218.099   CPU_WriteMem(4 bytes @ 0xE000EDF0)
T7B70 000:218.644   CPU is running
T7B70 000:218.678   CPU_WriteMem(4 bytes @ 0xE000EDFC)
T7B70 000:221.149   Reset: Halt core after reset via DEMCR.VC_CORERESET.
T7B70 000:224.399   Reset: Reset device via AIRCR.SYSRESETREQ.
T7B70 000:224.453   CPU is running
T7B70 000:224.473   CPU_WriteMem(4 bytes @ 0xE000ED0C)
T7B70 000:277.897   CPU_ReadMem(4 bytes @ 0xE000EDF0)
T7B70 000:278.274   CPU_ReadMem(4 bytes @ 0xE000EDF0)
T7B70 000:281.060   CPU_WriteMem(4 bytes @ 0xE000EDFC)
T7B70 000:287.431   CPU_ReadMem(4 bytes @ 0xE000EDF0)
T7B70 000:290.126   CPU_WriteMem(4 bytes @ 0xE0002000)
T7B70 000:290.564   CPU_ReadMem(4 bytes @ 0xE000EDFC)
T7B70 000:290.967   CPU_ReadMem(4 bytes @ 0xE0001000)
T7B70 000:291.289   CPU_WriteMem(4 bytes @ 0xE0001000)
T7B70 000:291.843 - 77.552ms 
T7B70 000:291.905 JLINK_Halt()
T7B70 000:291.919 - 0.014ms returns 0x00
T7B70 000:291.937 JLINK_ReadMemU32(0xE000EDF0, 0x1 Items)
T7B70 000:291.954   CPU_ReadMem(4 bytes @ 0xE000EDF0)
T7B70 000:314.054   Data:  03 00 03 00
T7B70 000:314.094   Debug reg: DHCSR
T7B70 000:314.110 - 22.173ms returns 1 (0x1)
T7B70 000:314.195 JLINK_WriteU32(0xE000EDF0, 0xA05F0003)
T7B70 000:314.210   Debug reg: DHCSR
T7B70 000:314.500   CPU_WriteMem(4 bytes @ 0xE000EDF0)
T7B70 000:314.992 - 0.798ms returns 0 (0x00000000)
T7B70 000:315.053 JLINK_WriteU32(0xE000EDFC, 0x01000000)
T7B70 000:315.067   Debug reg: DEMCR
T7B70 000:315.086   CPU_WriteMem(4 bytes @ 0xE000EDFC)
T7B70 000:315.484 - 0.431ms returns 0 (0x00000000)
T7B70 000:323.693 JLINK_GetHWStatus(...)
T7B70 000:324.092 - 0.399ms returns 0
T7B70 000:329.562 JLINK_GetNumBPUnits(Type = 0xFFFFFF00)
T7B70 000:329.613 - 0.051ms returns 0x04
T7B70 000:329.627 JLINK_GetNumBPUnits(Type = 0xF0)
T7B70 000:329.638 - 0.011ms returns 0x2000
T7B70 000:329.650 JLINK_GetNumWPUnits()
T7B70 000:329.665 - 0.014ms returns 2
T7B70 000:335.308 JLINK_GetSpeed()
T7B70 000:335.350 - 0.042ms returns 12000
T7B70 000:339.033 JLINK_ReadMemU32(0xE000E004, 0x1 Items)
T7B70 000:339.078   CPU_ReadMem(4 bytes @ 0xE000E004)
T7B70 000:339.675   Data:  00 00 00 00
T7B70 000:339.713 - 0.679ms returns 1 (0x1)
T7B70 000:339.799 JLINK_Halt()
T7B70 000:339.815 - 0.016ms returns 0x00
T7B70 000:339.827 JLINK_IsHalted()
T7B70 000:339.838 - 0.011ms returns TRUE
T7B70 000:342.520 JLINK_WriteMem(0x20000000, 0x290 Bytes, ...)
T7B70 000:342.540   Data:  00 BE 0A E0 0D 78 2D 06 68 40 08 24 40 00 00 D3 ...
T7B70 000:342.780   CPU_WriteMem(656 bytes @ 0x20000000)
T7B70 000:345.736 - 3.215ms returns 0x290
T7B70 000:345.859 JLINK_HasError()
T7B70 000:345.877 JLINK_WriteReg(R0, 0x08000000)
T7B70 000:345.890 - 0.013ms returns 0
T7B70 000:345.902 JLINK_WriteReg(R1, 0x00B71B00)
T7B70 000:345.912 - 0.010ms returns 0
T7B70 000:345.923 JLINK_WriteReg(R2, 0x00000001)
T7B70 000:345.935 - 0.011ms returns 0
T7B70 000:345.946 JLINK_WriteReg(R3, 0x00000000)
T7B70 000:345.957 - 0.010ms returns 0
T7B70 000:345.968 JLINK_WriteReg(R4, 0x00000000)
T7B70 000:345.979 - 0.011ms returns 0
T7B70 000:345.990 JLINK_WriteReg(R5, 0x00000000)
T7B70 000:346.001 - 0.010ms returns 0
T7B70 000:346.012 JLINK_WriteReg(R6, 0x00000000)
T7B70 000:346.022 - 0.010ms returns 0
T7B70 000:346.033 JLINK_WriteReg(R7, 0x00000000)
T7B70 000:346.044 - 0.010ms returns 0
T7B70 000:346.064 JLINK_WriteReg(R8, 0x00000000)
T7B70 000:346.074 - 0.019ms returns 0
T7B70 000:346.085 JLINK_WriteReg(R9, 0x20000288)
T7B70 000:346.096 - 0.010ms returns 0
T7B70 000:346.107 JLINK_WriteReg(R10, 0x00000000)
T7B70 000:346.118 - 0.010ms returns 0
T7B70 000:346.129 JLINK_WriteReg(R11, 0x00000000)
T7B70 000:346.139 - 0.010ms returns 0
T7B70 000:346.150 JLINK_WriteReg(R12, 0x00000000)
T7B70 000:346.161 - 0.010ms returns 0
T7B70 000:346.172 JLINK_WriteReg(R13 (SP), 0x20000800)
T7B70 000:346.183 - 0.011ms returns 0
T7B70 000:346.194 JLINK_WriteReg(R14, 0x20000001)
T7B70 000:346.204 - 0.010ms returns 0
T7B70 000:346.218 JLINK_WriteReg(R15 (PC), 0x20000022)
T7B70 000:346.229 - 0.013ms returns 0
T7B70 000:346.240 JLINK_WriteReg(XPSR, 0x01000000)
T7B70 000:346.251 - 0.010ms returns 0
T7B70 000:346.262 JLINK_WriteReg(MSP, 0x20000800)
T7B70 000:346.272 - 0.010ms returns 0
T7B70 000:346.283 JLINK_WriteReg(PSP, 0x20000800)
T7B70 000:346.293 - 0.010ms returns 0
T7B70 000:346.304 JLINK_WriteReg(CFBP, 0x00000000)
T7B70 000:346.315 - 0.010ms returns 0
T7B70 000:346.327 JLINK_SetBPEx(Addr = 0x20000000, Type = 0xFFFFFFF2)
T7B70 000:346.341   CPU_ReadMem(2 bytes @ 0x20000000)
T7B70 000:361.353 - 15.026ms returns 0x00000001
T7B70 000:361.496 JLINK_Go()
T7B70 000:361.516   CPU_WriteMem(2 bytes @ 0x20000000)
T7B70 000:362.084   CPU_ReadMem(4 bytes @ 0xE0001000)
T7B70 000:362.542   CPU_WriteMem(4 bytes @ 0xE0001000)
T7B70 000:362.969   CPU_WriteMem(4 bytes @ 0xE0002008)
T7B70 000:362.991   CPU_WriteMem(4 bytes @ 0xE000200C)
T7B70 000:363.007   CPU_WriteMem(4 bytes @ 0xE0002010)
T7B70 000:363.022   CPU_WriteMem(4 bytes @ 0xE0002014)
T7B70 000:364.004   CPU_WriteMem(4 bytes @ 0xE0001004)
T7B70 000:368.887   Memory map 'after startup completion point' is active
T7B70 000:368.923 - 7.426ms 
T7B70 000:369.005 JLINK_IsHalted()
T7B70 000:371.442   CPU_ReadMem(2 bytes @ 0x20000000)
T7B70 000:371.843 - 2.838ms returns TRUE
T7B70 000:371.952 JLINK_ReadReg(R15 (PC))
T7B70 000:371.970 - 0.018ms returns 0x20000000
T7B70 000:371.984 JLINK_ClrBPEx(BPHandle = 0x00000001)
T7B70 000:371.997 - 0.012ms returns 0x00
T7B70 000:372.010 JLINK_ReadReg(R0)
T7B70 000:372.022 - 0.012ms returns 0x00000000
T7B70 000:372.538 JLINK_HasError()
T7B70 000:372.568 JLINK_WriteReg(R0, 0x08000000)
T7B70 000:372.581 - 0.012ms returns 0
T7B70 000:372.592 JLINK_WriteReg(R1, 0x00001000)
T7B70 000:372.602 - 0.010ms returns 0
T7B70 000:372.617 JLINK_WriteReg(R2, 0x000000FF)
T7B70 000:372.628 - 0.010ms returns 0
T7B70 000:372.639 JLINK_WriteReg(R3, 0x00000000)
T7B70 000:372.649 - 0.010ms returns 0
T7B70 000:372.660 JLINK_WriteReg(R4, 0x00000000)
T7B70 000:372.670 - 0.010ms returns 0
T7B70 000:372.681 JLINK_WriteReg(R5, 0x00000000)
T7B70 000:372.692 - 0.010ms returns 0
T7B70 000:372.704 JLINK_WriteReg(R6, 0x00000000)
T7B70 000:372.715 - 0.010ms returns 0
T7B70 000:372.725 JLINK_WriteReg(R7, 0x00000000)
T7B70 000:372.736 - 0.010ms returns 0
T7B70 000:372.747 JLINK_WriteReg(R8, 0x00000000)
T7B70 000:372.757 - 0.010ms returns 0
T7B70 000:372.768 JLINK_WriteReg(R9, 0x20000288)
T7B70 000:372.779 - 0.010ms returns 0
T7B70 000:372.790 JLINK_WriteReg(R10, 0x00000000)
T7B70 000:372.800 - 0.010ms returns 0
T7B70 000:372.811 JLINK_WriteReg(R11, 0x00000000)
T7B70 000:372.821 - 0.010ms returns 0
T7B70 000:372.832 JLINK_WriteReg(R12, 0x00000000)
T7B70 000:372.843 - 0.010ms returns 0
T7B70 000:372.854 JLINK_WriteReg(R13 (SP), 0x20000800)
T7B70 000:372.865 - 0.010ms returns 0
T7B70 000:372.876 JLINK_WriteReg(R14, 0x20000001)
T7B70 000:372.886 - 0.010ms returns 0
T7B70 000:372.897 JLINK_WriteReg(R15 (PC), 0x20000164)
T7B70 000:372.907 - 0.010ms returns 0
T7B70 000:372.918 JLINK_WriteReg(XPSR, 0x01000000)
T7B70 000:372.929 - 0.010ms returns 0
T7B70 000:372.940 JLINK_WriteReg(MSP, 0x20000800)
T7B70 000:372.950 - 0.010ms returns 0
T7B70 000:372.961 JLINK_WriteReg(PSP, 0x20000800)
T7B70 000:372.971 - 0.010ms returns 0
T7B70 000:372.984 JLINK_WriteReg(CFBP, 0x00000000)
T7B70 000:372.994 - 0.010ms returns 0
T7B70 000:373.005 JLINK_SetBPEx(Addr = 0x20000000, Type = 0xFFFFFFF2)
T7B70 000:373.017 - 0.011ms returns 0x00000002
T7B70 000:373.028 JLINK_Go()
T7B70 000:373.042   CPU_ReadMem(4 bytes @ 0xE0001000)
T7B70 000:375.828 - 2.799ms 
T7B70 000:375.897 JLINK_IsHalted()
T7B70 000:378.233   CPU_ReadMem(2 bytes @ 0x20000000)
T7B70 000:378.621 - 2.723ms returns TRUE
T7B70 000:378.671 JLINK_ReadReg(R15 (PC))
T7B70 000:378.691 - 0.014ms returns 0x20000000
T7B70 000:378.704 JLINK_ClrBPEx(BPHandle = 0x00000002)
T7B70 000:378.715 - 0.011ms returns 0x00
T7B70 000:378.727 JLINK_ReadReg(R0)
T7B70 000:378.738 - 0.010ms returns 0x00000001
T7B70 000:378.749 JLINK_HasError()
T7B70 000:378.764 JLINK_WriteReg(R0, 0x08000000)
T7B70 000:378.775 - 0.011ms returns 0
T7B70 000:378.786 JLINK_WriteReg(R1, 0x00001000)
T7B70 000:378.797 - 0.010ms returns 0
T7B70 000:378.808 JLINK_WriteReg(R2, 0x000000FF)
T7B70 000:378.818 - 0.010ms returns 0
T7B70 000:378.829 JLINK_WriteReg(R3, 0x00000000)
T7B70 000:378.839 - 0.010ms returns 0
T7B70 000:378.851 JLINK_WriteReg(R4, 0x00000000)
T7B70 000:378.861 - 0.010ms returns 0
T7B70 000:378.872 JLINK_WriteReg(R5, 0x00000000)
T7B70 000:378.883 - 0.010ms returns 0
T7B70 000:378.893 JLINK_WriteReg(R6, 0x00000000)
T7B70 000:378.904 - 0.010ms returns 0
T7B70 000:378.915 JLINK_WriteReg(R7, 0x00000000)
T7B70 000:378.926 - 0.011ms returns 0
T7B70 000:378.937 JLINK_WriteReg(R8, 0x00000000)
T7B70 000:378.947 - 0.010ms returns 0
T7B70 000:378.958 JLINK_WriteReg(R9, 0x20000288)
T7B70 000:378.969 - 0.010ms returns 0
T7B70 000:378.980 JLINK_WriteReg(R10, 0x00000000)
T7B70 000:378.990 - 0.010ms returns 0
T7B70 000:379.001 JLINK_WriteReg(R11, 0x00000000)
T7B70 000:379.011 - 0.010ms returns 0
T7B70 000:379.022 JLINK_WriteReg(R12, 0x00000000)
T7B70 000:379.033 - 0.010ms returns 0
T7B70 000:379.043 JLINK_WriteReg(R13 (SP), 0x20000800)
T7B70 000:379.054 - 0.010ms returns 0
T7B70 000:379.065 JLINK_WriteReg(R14, 0x20000001)
T7B70 000:379.076 - 0.010ms returns 0
T7B70 000:379.087 JLINK_WriteReg(R15 (PC), 0x20000100)
T7B70 000:379.097 - 0.010ms returns 0
T7B70 000:379.108 JLINK_WriteReg(XPSR, 0x01000000)
T7B70 000:379.118 - 0.010ms returns 0
T7B70 000:379.129 JLINK_WriteReg(MSP, 0x20000800)
T7B70 000:379.140 - 0.010ms returns 0
T7B70 000:379.151 JLINK_WriteReg(PSP, 0x20000800)
T7B70 000:379.161 - 0.010ms returns 0
T7B70 000:379.172 JLINK_WriteReg(CFBP, 0x00000000)
T7B70 000:379.183 - 0.010ms returns 0
T7B70 000:379.246 JLINK_SetBPEx(Addr = 0x20000000, Type = 0xFFFFFFF2)
T7B70 000:379.257 - 0.011ms returns 0x00000003
T7B70 000:379.268 JLINK_Go()
T7B70 000:379.282   CPU_ReadMem(4 bytes @ 0xE0001000)
T7B70 000:382.001 - 2.732ms 
T7B70 000:382.063 JLINK_IsHalted()
T7B70 000:385.722 - 3.659ms returns FALSE
T7B70 000:385.773 JLINK_HasError()
T7B70 000:402.203 JLINK_IsHalted()
T7B70 000:405.177   CPU_ReadMem(2 bytes @ 0x20000000)
T7B70 000:405.718 - 3.513ms returns TRUE
T7B70 000:405.773 JLINK_ReadReg(R15 (PC))
T7B70 000:405.788 - 0.015ms returns 0x20000000
T7B70 000:405.800 JLINK_ClrBPEx(BPHandle = 0x00000003)
T7B70 000:405.811 - 0.011ms returns 0x00
T7B70 000:405.822 JLINK_ReadReg(R0)
T7B70 000:405.833 - 0.010ms returns 0x00000000
T7B70 000:406.276 JLINK_HasError()
T7B70 000:406.305 JLINK_WriteReg(R0, 0x08001000)
T7B70 000:406.317 - 0.011ms returns 0
T7B70 000:406.328 JLINK_WriteReg(R1, 0x00001000)
T7B70 000:406.339 - 0.010ms returns 0
T7B70 000:406.349 JLINK_WriteReg(R2, 0x000000FF)
T7B70 000:406.359 - 0.010ms returns 0
T7B70 000:406.370 JLINK_WriteReg(R3, 0x00000000)
T7B70 000:406.380 - 0.010ms returns 0
T7B70 000:406.391 JLINK_WriteReg(R4, 0x00000000)
T7B70 000:406.401 - 0.010ms returns 0
T7B70 000:406.412 JLINK_WriteReg(R5, 0x00000000)
T7B70 000:406.422 - 0.010ms returns 0
T7B70 000:406.433 JLINK_WriteReg(R6, 0x00000000)
T7B70 000:406.443 - 0.010ms returns 0
T7B70 000:406.454 JLINK_WriteReg(R7, 0x00000000)
T7B70 000:406.464 - 0.010ms returns 0
T7B70 000:406.476 JLINK_WriteReg(R8, 0x00000000)
T7B70 000:406.486 - 0.010ms returns 0
T7B70 000:406.497 JLINK_WriteReg(R9, 0x20000288)
T7B70 000:406.507 - 0.010ms returns 0
T7B70 000:406.518 JLINK_WriteReg(R10, 0x00000000)
T7B70 000:406.528 - 0.010ms returns 0
T7B70 000:406.539 JLINK_WriteReg(R11, 0x00000000)
T7B70 000:406.549 - 0.010ms returns 0
T7B70 000:406.559 JLINK_WriteReg(R12, 0x00000000)
T7B70 000:406.570 - 0.010ms returns 0
T7B70 000:406.580 JLINK_WriteReg(R13 (SP), 0x20000800)
T7B70 000:406.592 - 0.011ms returns 0
T7B70 000:406.602 JLINK_WriteReg(R14, 0x20000001)
T7B70 000:406.613 - 0.010ms returns 0
T7B70 000:406.624 JLINK_WriteReg(R15 (PC), 0x20000164)
T7B70 000:406.634 - 0.010ms returns 0
T7B70 000:406.646 JLINK_WriteReg(XPSR, 0x01000000)
T7B70 000:406.656 - 0.010ms returns 0
T7B70 000:406.667 JLINK_WriteReg(MSP, 0x20000800)
T7B70 000:406.677 - 0.010ms returns 0
T7B70 000:406.688 JLINK_WriteReg(PSP, 0x20000800)
T7B70 000:406.698 - 0.010ms returns 0
T7B70 000:406.709 JLINK_WriteReg(CFBP, 0x00000000)
T7B70 000:406.719 - 0.010ms returns 0
T7B70 000:406.730 JLINK_SetBPEx(Addr = 0x20000000, Type = 0xFFFFFFF2)
T7B70 000:406.740 - 0.011ms returns 0x00000004
T7B70 000:406.751 JLINK_Go()
T7B70 000:406.768   CPU_ReadMem(4 bytes @ 0xE0001000)
T7B70 000:409.777 - 3.025ms 
T7B70 000:409.842 JLINK_IsHalted()
T7B70 000:424.921   CPU_ReadMem(2 bytes @ 0x20000000)
T7B70 000:425.374 - 15.530ms returns TRUE
T7B70 000:425.443 JLINK_ReadReg(R15 (PC))
T7B70 000:425.459 - 0.015ms returns 0x20000000
T7B70 000:425.473 JLINK_ClrBPEx(BPHandle = 0x00000004)
T7B70 000:425.485 - 0.012ms returns 0x00
T7B70 000:425.497 JLINK_ReadReg(R0)
T7B70 000:425.508 - 0.010ms returns 0x00000001
T7B70 000:425.521 JLINK_HasError()
T7B70 000:425.537 JLINK_WriteReg(R0, 0x08001000)
T7B70 000:425.548 - 0.011ms returns 0
T7B70 000:425.559 JLINK_WriteReg(R1, 0x00001000)
T7B70 000:425.570 - 0.010ms returns 0
T7B70 000:425.581 JLINK_WriteReg(R2, 0x000000FF)
T7B70 000:425.591 - 0.010ms returns 0
T7B70 000:425.613 JLINK_WriteReg(R3, 0x00000000)
T7B70 000:425.625 - 0.011ms returns 0
T7B70 000:425.636 JLINK_WriteReg(R4, 0x00000000)
T7B70 000:425.646 - 0.010ms returns 0
T7B70 000:425.657 JLINK_WriteReg(R5, 0x00000000)
T7B70 000:425.668 - 0.010ms returns 0
T7B70 000:425.679 JLINK_WriteReg(R6, 0x00000000)
T7B70 000:425.689 - 0.010ms returns 0
T7B70 000:425.700 JLINK_WriteReg(R7, 0x00000000)
T7B70 000:425.711 - 0.010ms returns 0
T7B70 000:425.722 JLINK_WriteReg(R8, 0x00000000)
T7B70 000:425.732 - 0.010ms returns 0
T7B70 000:425.745 JLINK_WriteReg(R9, 0x20000288)
T7B70 000:425.782 - 0.036ms returns 0
T7B70 000:425.794 JLINK_WriteReg(R10, 0x00000000)
T7B70 000:425.805 - 0.010ms returns 0
T7B70 000:425.817 JLINK_WriteReg(R11, 0x00000000)
T7B70 000:425.828 - 0.010ms returns 0
T7B70 000:425.839 JLINK_WriteReg(R12, 0x00000000)
T7B70 000:425.849 - 0.010ms returns 0
T7B70 000:425.860 JLINK_WriteReg(R13 (SP), 0x20000800)
T7B70 000:425.871 - 0.011ms returns 0
T7B70 000:425.882 JLINK_WriteReg(R14, 0x20000001)
T7B70 000:425.893 - 0.011ms returns 0
T7B70 000:425.904 JLINK_WriteReg(R15 (PC), 0x20000100)
T7B70 000:425.915 - 0.010ms returns 0
T7B70 000:425.926 JLINK_WriteReg(XPSR, 0x01000000)
T7B70 000:425.937 - 0.010ms returns 0
T7B70 000:425.957 JLINK_WriteReg(MSP, 0x20000800)
T7B70 000:425.968 - 0.010ms returns 0
T7B70 000:425.979 JLINK_WriteReg(PSP, 0x20000800)
T7B70 000:425.989 - 0.010ms returns 0
T7B70 000:426.001 JLINK_WriteReg(CFBP, 0x00000000)
T7B70 000:426.011 - 0.010ms returns 0
T7B70 000:426.023 JLINK_SetBPEx(Addr = 0x20000000, Type = 0xFFFFFFF2)
T7B70 000:426.034 - 0.011ms returns 0x00000005
T7B70 000:426.045 JLINK_Go()
T7B70 000:426.061   CPU_ReadMem(4 bytes @ 0xE0001000)
T7B70 000:430.813 - 4.767ms 
T7B70 000:430.876 JLINK_IsHalted()
T7B70 000:434.588 - 3.710ms returns FALSE
T7B70 000:434.653 JLINK_HasError()
T7B70 000:437.914 JLINK_IsHalted()
T7B70 000:441.845   CPU_ReadMem(2 bytes @ 0x20000000)
T7B70 000:442.207 - 4.292ms returns TRUE
T7B70 000:442.258 JLINK_ReadReg(R15 (PC))
T7B70 000:442.273 - 0.014ms returns 0x20000000
T7B70 000:442.285 JLINK_ClrBPEx(BPHandle = 0x00000005)
T7B70 000:442.296 - 0.010ms returns 0x00
T7B70 000:442.307 JLINK_ReadReg(R0)
T7B70 000:442.318 - 0.010ms returns 0x00000000
T7B70 000:442.706 JLINK_HasError()
T7B70 000:442.728 JLINK_WriteReg(R0, 0x08002000)
T7B70 000:442.740 - 0.012ms returns 0
T7B70 000:442.751 JLINK_WriteReg(R1, 0x00001000)
T7B70 000:442.763 - 0.011ms returns 0
T7B70 000:442.774 JLINK_WriteReg(R2, 0x000000FF)
T7B70 000:442.785 - 0.010ms returns 0
T7B70 000:442.796 JLINK_WriteReg(R3, 0x00000000)
T7B70 000:442.806 - 0.010ms returns 0
T7B70 000:442.817 JLINK_WriteReg(R4, 0x00000000)
T7B70 000:442.828 - 0.010ms returns 0
T7B70 000:442.839 JLINK_WriteReg(R5, 0x00000000)
T7B70 000:442.849 - 0.010ms returns 0
T7B70 000:442.860 JLINK_WriteReg(R6, 0x00000000)
T7B70 000:442.873 - 0.013ms returns 0
T7B70 000:442.885 JLINK_WriteReg(R7, 0x00000000)
T7B70 000:442.896 - 0.010ms returns 0
T7B70 000:442.907 JLINK_WriteReg(R8, 0x00000000)
T7B70 000:442.918 - 0.010ms returns 0
T7B70 000:442.929 JLINK_WriteReg(R9, 0x20000288)
T7B70 000:442.939 - 0.010ms returns 0
T7B70 000:442.950 JLINK_WriteReg(R10, 0x00000000)
T7B70 000:442.960 - 0.010ms returns 0
T7B70 000:442.971 JLINK_WriteReg(R11, 0x00000000)
T7B70 000:442.982 - 0.010ms returns 0
T7B70 000:442.993 JLINK_WriteReg(R12, 0x00000000)
T7B70 000:443.003 - 0.010ms returns 0
T7B70 000:443.014 JLINK_WriteReg(R13 (SP), 0x20000800)
T7B70 000:443.025 - 0.011ms returns 0
T7B70 000:443.036 JLINK_WriteReg(R14, 0x20000001)
T7B70 000:443.046 - 0.010ms returns 0
T7B70 000:443.057 JLINK_WriteReg(R15 (PC), 0x20000164)
T7B70 000:443.068 - 0.010ms returns 0
T7B70 000:443.079 JLINK_WriteReg(XPSR, 0x01000000)
T7B70 000:443.089 - 0.010ms returns 0
T7B70 000:443.100 JLINK_WriteReg(MSP, 0x20000800)
T7B70 000:443.111 - 0.010ms returns 0
T7B70 000:443.122 JLINK_WriteReg(PSP, 0x20000800)
T7B70 000:443.138 - 0.016ms returns 0
T7B70 000:443.149 JLINK_WriteReg(CFBP, 0x00000000)
T7B70 000:443.160 - 0.011ms returns 0
T7B70 000:443.171 JLINK_SetBPEx(Addr = 0x20000000, Type = 0xFFFFFFF2)
T7B70 000:443.183 - 0.011ms returns 0x00000006
T7B70 000:443.194 JLINK_Go()
T7B70 000:443.209   CPU_ReadMem(4 bytes @ 0xE0001000)
T7B70 000:445.793 - 2.599ms 
T7B70 000:445.850 JLINK_IsHalted()
T7B70 000:448.189   CPU_ReadMem(2 bytes @ 0x20000000)
T7B70 000:448.550 - 2.700ms returns TRUE
T7B70 000:448.597 JLINK_ReadReg(R15 (PC))
T7B70 000:448.611 - 0.013ms returns 0x20000000
T7B70 000:448.622 JLINK_ClrBPEx(BPHandle = 0x00000006)
T7B70 000:448.635 - 0.012ms returns 0x00
T7B70 000:448.647 JLINK_ReadReg(R0)
T7B70 000:448.658 - 0.010ms returns 0x00000001
T7B70 000:448.670 JLINK_HasError()
T7B70 000:448.682 JLINK_WriteReg(R0, 0x08002000)
T7B70 000:448.693 - 0.011ms returns 0
T7B70 000:448.704 JLINK_WriteReg(R1, 0x00001000)
T7B70 000:448.714 - 0.010ms returns 0
T7B70 000:448.725 JLINK_WriteReg(R2, 0x000000FF)
T7B70 000:448.736 - 0.010ms returns 0
T7B70 000:448.747 JLINK_WriteReg(R3, 0x00000000)
T7B70 000:448.757 - 0.010ms returns 0
T7B70 000:448.768 JLINK_WriteReg(R4, 0x00000000)
T7B70 000:448.779 - 0.010ms returns 0
T7B70 000:448.790 JLINK_WriteReg(R5, 0x00000000)
T7B70 000:448.800 - 0.010ms returns 0
T7B70 000:448.811 JLINK_WriteReg(R6, 0x00000000)
T7B70 000:448.822 - 0.010ms returns 0
T7B70 000:448.833 JLINK_WriteReg(R7, 0x00000000)
T7B70 000:448.843 - 0.010ms returns 0
T7B70 000:448.854 JLINK_WriteReg(R8, 0x00000000)
T7B70 000:448.864 - 0.010ms returns 0
T7B70 000:448.875 JLINK_WriteReg(R9, 0x20000288)
T7B70 000:448.886 - 0.010ms returns 0
T7B70 000:448.897 JLINK_WriteReg(R10, 0x00000000)
T7B70 000:448.927 - 0.030ms returns 0
T7B70 000:448.948 JLINK_WriteReg(R11, 0x00000000)
T7B70 000:448.959 - 0.011ms returns 0
T7B70 000:448.970 JLINK_WriteReg(R12, 0x00000000)
T7B70 000:448.981 - 0.010ms returns 0
T7B70 000:448.992 JLINK_WriteReg(R13 (SP), 0x20000800)
T7B70 000:449.003 - 0.011ms returns 0
T7B70 000:449.014 JLINK_WriteReg(R14, 0x20000001)
T7B70 000:449.025 - 0.010ms returns 0
T7B70 000:449.036 JLINK_WriteReg(R15 (PC), 0x20000100)
T7B70 000:449.047 - 0.010ms returns 0
T7B70 000:449.058 JLINK_WriteReg(XPSR, 0x01000000)
T7B70 000:449.068 - 0.010ms returns 0
T7B70 000:449.079 JLINK_WriteReg(MSP, 0x20000800)
T7B70 000:449.090 - 0.010ms returns 0
T7B70 000:449.101 JLINK_WriteReg(PSP, 0x20000800)
T7B70 000:449.111 - 0.010ms returns 0
T7B70 000:449.122 JLINK_WriteReg(CFBP, 0x00000000)
T7B70 000:449.133 - 0.010ms returns 0
T7B70 000:449.144 JLINK_SetBPEx(Addr = 0x20000000, Type = 0xFFFFFFF2)
T7B70 000:449.156 - 0.011ms returns 0x00000007
T7B70 000:449.167 JLINK_Go()
T7B70 000:449.183   CPU_ReadMem(4 bytes @ 0xE0001000)
T7B70 000:451.969 - 2.801ms 
T7B70 000:452.025 JLINK_IsHalted()
T7B70 000:455.666 - 3.641ms returns FALSE
T7B70 000:455.752 JLINK_HasError()
T7B70 000:460.534 JLINK_IsHalted()
T7B70 000:463.077   CPU_ReadMem(2 bytes @ 0x20000000)
T7B70 000:463.441 - 2.908ms returns TRUE
T7B70 000:463.490 JLINK_ReadReg(R15 (PC))
T7B70 000:463.504 - 0.014ms returns 0x20000000
T7B70 000:463.516 JLINK_ClrBPEx(BPHandle = 0x00000007)
T7B70 000:463.527 - 0.011ms returns 0x00
T7B70 000:463.538 JLINK_ReadReg(R0)
T7B70 000:463.549 - 0.010ms returns 0x00000000
T7B70 000:463.875 JLINK_HasError()
T7B70 000:463.897 JLINK_WriteReg(R0, 0x08003000)
T7B70 000:463.909 - 0.012ms returns 0
T7B70 000:463.921 JLINK_WriteReg(R1, 0x00001000)
T7B70 000:463.932 - 0.011ms returns 0
T7B70 000:463.943 JLINK_WriteReg(R2, 0x000000FF)
T7B70 000:463.954 - 0.010ms returns 0
T7B70 000:463.965 JLINK_WriteReg(R3, 0x00000000)
T7B70 000:463.975 - 0.010ms returns 0
T7B70 000:463.987 JLINK_WriteReg(R4, 0x00000000)
T7B70 000:463.997 - 0.010ms returns 0
T7B70 000:464.008 JLINK_WriteReg(R5, 0x00000000)
T7B70 000:464.018 - 0.010ms returns 0
T7B70 000:464.029 JLINK_WriteReg(R6, 0x00000000)
T7B70 000:464.040 - 0.010ms returns 0
T7B70 000:464.051 JLINK_WriteReg(R7, 0x00000000)
T7B70 000:464.061 - 0.010ms returns 0
T7B70 000:464.072 JLINK_WriteReg(R8, 0x00000000)
T7B70 000:464.082 - 0.010ms returns 0
T7B70 000:464.093 JLINK_WriteReg(R9, 0x20000288)
T7B70 000:464.104 - 0.010ms returns 0
T7B70 000:464.120 JLINK_WriteReg(R10, 0x00000000)
T7B70 000:464.133 - 0.013ms returns 0
T7B70 000:464.144 JLINK_WriteReg(R11, 0x00000000)
T7B70 000:464.155 - 0.010ms returns 0
T7B70 000:464.166 JLINK_WriteReg(R12, 0x00000000)
T7B70 000:464.176 - 0.010ms returns 0
T7B70 000:464.187 JLINK_WriteReg(R13 (SP), 0x20000800)
T7B70 000:464.198 - 0.010ms returns 0
T7B70 000:464.209 JLINK_WriteReg(R14, 0x20000001)
T7B70 000:464.219 - 0.010ms returns 0
T7B70 000:464.233 JLINK_WriteReg(R15 (PC), 0x20000164)
T7B70 000:464.244 - 0.010ms returns 0
T7B70 000:464.255 JLINK_WriteReg(XPSR, 0x01000000)
T7B70 000:464.266 - 0.010ms returns 0
T7B70 000:464.277 JLINK_WriteReg(MSP, 0x20000800)
T7B70 000:464.287 - 0.010ms returns 0
T7B70 000:464.298 JLINK_WriteReg(PSP, 0x20000800)
T7B70 000:464.309 - 0.010ms returns 0
T7B70 000:464.320 JLINK_WriteReg(CFBP, 0x00000000)
T7B70 000:464.330 - 0.010ms returns 0
T7B70 000:464.342 JLINK_SetBPEx(Addr = 0x20000000, Type = 0xFFFFFFF2)
T7B70 000:464.353 - 0.011ms returns 0x00000008
T7B70 000:464.364 JLINK_Go()
T7B70 000:464.379   CPU_ReadMem(4 bytes @ 0xE0001000)
T7B70 000:467.121 - 2.756ms 
T7B70 000:467.180 JLINK_IsHalted()
T7B70 000:469.567   CPU_ReadMem(2 bytes @ 0x20000000)
T7B70 000:469.974 - 2.793ms returns TRUE
T7B70 000:470.029 JLINK_ReadReg(R15 (PC))
T7B70 000:470.044 - 0.014ms returns 0x20000000
T7B70 000:470.055 JLINK_ClrBPEx(BPHandle = 0x00000008)
T7B70 000:470.066 - 0.011ms returns 0x00
T7B70 000:470.078 JLINK_ReadReg(R0)
T7B70 000:470.088 - 0.010ms returns 0x00000001
T7B70 000:470.100 JLINK_HasError()
T7B70 000:470.111 JLINK_WriteReg(R0, 0x08003000)
T7B70 000:470.122 - 0.011ms returns 0
T7B70 000:470.137 JLINK_WriteReg(R1, 0x00001000)
T7B70 000:470.147 - 0.010ms returns 0
T7B70 000:470.158 JLINK_WriteReg(R2, 0x000000FF)
T7B70 000:470.169 - 0.010ms returns 0
T7B70 000:470.180 JLINK_WriteReg(R3, 0x00000000)
T7B70 000:470.190 - 0.010ms returns 0
T7B70 000:470.201 JLINK_WriteReg(R4, 0x00000000)
T7B70 000:470.212 - 0.010ms returns 0
T7B70 000:470.223 JLINK_WriteReg(R5, 0x00000000)
T7B70 000:470.233 - 0.010ms returns 0
T7B70 000:470.244 JLINK_WriteReg(R6, 0x00000000)
T7B70 000:470.255 - 0.010ms returns 0
T7B70 000:470.266 JLINK_WriteReg(R7, 0x00000000)
T7B70 000:470.276 - 0.010ms returns 0
T7B70 000:470.287 JLINK_WriteReg(R8, 0x00000000)
T7B70 000:470.298 - 0.010ms returns 0
T7B70 000:470.309 JLINK_WriteReg(R9, 0x20000288)
T7B70 000:470.329 - 0.020ms returns 0
T7B70 000:470.341 JLINK_WriteReg(R10, 0x00000000)
T7B70 000:470.358 - 0.016ms returns 0
T7B70 000:470.369 JLINK_WriteReg(R11, 0x00000000)
T7B70 000:470.379 - 0.010ms returns 0
T7B70 000:470.390 JLINK_WriteReg(R12, 0x00000000)
T7B70 000:470.400 - 0.010ms returns 0
T7B70 000:470.412 JLINK_WriteReg(R13 (SP), 0x20000800)
T7B70 000:470.422 - 0.010ms returns 0
T7B70 000:470.433 JLINK_WriteReg(R14, 0x20000001)
T7B70 000:470.470 - 0.037ms returns 0
T7B70 000:470.481 JLINK_WriteReg(R15 (PC), 0x20000100)
T7B70 000:470.492 - 0.010ms returns 0
T7B70 000:470.503 JLINK_WriteReg(XPSR, 0x01000000)
T7B70 000:470.546 - 0.042ms returns 0
T7B70 000:470.564 JLINK_WriteReg(MSP, 0x20000800)
T7B70 000:470.576 - 0.012ms returns 0
T7B70 000:470.588 JLINK_WriteReg(PSP, 0x20000800)
T7B70 000:470.598 - 0.010ms returns 0
T7B70 000:470.609 JLINK_WriteReg(CFBP, 0x00000000)
T7B70 000:470.620 - 0.010ms returns 0
T7B70 000:470.631 JLINK_SetBPEx(Addr = 0x20000000, Type = 0xFFFFFFF2)
T7B70 000:470.643 - 0.011ms returns 0x00000009
T7B70 000:470.654 JLINK_Go()
T7B70 000:470.669   CPU_ReadMem(4 bytes @ 0xE0001000)
T7B70 000:474.827 - 4.173ms 
T7B70 000:474.895 JLINK_IsHalted()
T7B70 000:478.608 - 3.712ms returns FALSE
T7B70 000:478.658 JLINK_HasError()
T7B70 000:481.484 JLINK_IsHalted()
T7B70 000:483.890   CPU_ReadMem(2 bytes @ 0x20000000)
T7B70 000:484.271 - 2.786ms returns TRUE
T7B70 000:484.320 JLINK_ReadReg(R15 (PC))
T7B70 000:484.334 - 0.014ms returns 0x20000000
T7B70 000:484.346 JLINK_ClrBPEx(BPHandle = 0x00000009)
T7B70 000:484.357 - 0.011ms returns 0x00
T7B70 000:484.368 JLINK_ReadReg(R0)
T7B70 000:484.379 - 0.010ms returns 0x00000000
T7B70 000:484.770 JLINK_HasError()
T7B70 000:484.803 JLINK_WriteReg(R0, 0x00000001)
T7B70 000:484.816 - 0.012ms returns 0
T7B70 000:484.827 JLINK_WriteReg(R1, 0x00001000)
T7B70 000:484.838 - 0.010ms returns 0
T7B70 000:484.849 JLINK_WriteReg(R2, 0x000000FF)
T7B70 000:484.859 - 0.010ms returns 0
T7B70 000:484.870 JLINK_WriteReg(R3, 0x00000000)
T7B70 000:484.881 - 0.010ms returns 0
T7B70 000:484.893 JLINK_WriteReg(R4, 0x00000000)
T7B70 000:484.906 - 0.012ms returns 0
T7B70 000:484.917 JLINK_WriteReg(R5, 0x00000000)
T7B70 000:484.927 - 0.010ms returns 0
T7B70 000:484.938 JLINK_WriteReg(R6, 0x00000000)
T7B70 000:484.949 - 0.010ms returns 0
T7B70 000:484.960 JLINK_WriteReg(R7, 0x00000000)
T7B70 000:484.970 - 0.010ms returns 0
T7B70 000:484.981 JLINK_WriteReg(R8, 0x00000000)
T7B70 000:484.991 - 0.010ms returns 0
T7B70 000:485.002 JLINK_WriteReg(R9, 0x20000288)
T7B70 000:485.013 - 0.010ms returns 0
T7B70 000:485.024 JLINK_WriteReg(R10, 0x00000000)
T7B70 000:485.034 - 0.010ms returns 0
T7B70 000:485.046 JLINK_WriteReg(R11, 0x00000000)
T7B70 000:485.057 - 0.010ms returns 0
T7B70 000:485.068 JLINK_WriteReg(R12, 0x00000000)
T7B70 000:485.079 - 0.011ms returns 0
T7B70 000:485.090 JLINK_WriteReg(R13 (SP), 0x20000800)
T7B70 000:485.100 - 0.010ms returns 0
T7B70 000:485.112 JLINK_WriteReg(R14, 0x20000001)
T7B70 000:485.122 - 0.010ms returns 0
T7B70 000:485.138 JLINK_WriteReg(R15 (PC), 0x20000064)
T7B70 000:485.148 - 0.010ms returns 0
T7B70 000:485.160 JLINK_WriteReg(XPSR, 0x01000000)
T7B70 000:485.170 - 0.010ms returns 0
T7B70 000:485.181 JLINK_WriteReg(MSP, 0x20000800)
T7B70 000:485.192 - 0.010ms returns 0
T7B70 000:485.203 JLINK_WriteReg(PSP, 0x20000800)
T7B70 000:485.213 - 0.010ms returns 0
T7B70 000:485.225 JLINK_WriteReg(CFBP, 0x00000000)
T7B70 000:485.241 - 0.016ms returns 0
T7B70 000:485.253 JLINK_SetBPEx(Addr = 0x20000000, Type = 0xFFFFFFF2)
T7B70 000:485.264 - 0.011ms returns 0x0000000A
T7B70 000:485.276 JLINK_Go()
T7B70 000:485.291   CPU_ReadMem(4 bytes @ 0xE0001000)
T7B70 000:489.023 - 3.746ms 
T7B70 000:489.092 JLINK_IsHalted()
T7B70 000:491.458   CPU_ReadMem(2 bytes @ 0x20000000)
T7B70 000:491.860 - 2.766ms returns TRUE
